T0FD8 000:011.894   SEGGER J-Link V6.86 Log File
T0FD8 000:012.196   DLL Compiled: Sep 24 2020 17:31:31
T0FD8 000:012.213   Logging started @ 2021-02-23 06:34
T0FD8 000:012.228 - 12.235ms
T0FD8 000:012.255 JLINK_SetWarnOutHandler(...)
T0FD8 000:012.273 - 0.024ms
T0FD8 000:012.289 JLINK_OpenEx(...)
T0FD8 000:015.098   Firmware: J-Link V9 compiled Dec 13 2019 11:14:50
T0FD8 000:015.418   Decompressing FW timestamp took 233 us
T0FD8 000:022.104   Hardware: V9.30
T0FD8 000:022.168   S/N: 59303802
T0FD8 000:022.193   OEM: SEGGER
T0FD8 000:022.216   Feature(s): RDI, FlashBP, FlashDL, JFlash, GDB
T0FD8 000:023.687   TELNET listener socket opened on port 19021
T0FD8 000:023.919   WEBSRV Starting webserver
T0FD8 000:024.305   WEBSRV Webserver running on local port 19080
T0FD8 000:024.341 - 12.060ms returns "O.K."
T0FD8 000:024.377 JLINK_GetEmuCaps()
T0FD8 000:024.394 - 0.025ms returns 0xB9FF7BBF
T0FD8 000:024.417 JLINK_TIF_GetAvailable(...)
T0FD8 000:024.672 - 0.270ms
T0FD8 000:024.701 JLINK_SetErrorOutHandler(...)
T0FD8 000:024.717 - 0.024ms
T0FD8 000:024.753 JLINK_ExecCommand("ProjectFile = "E:\ARM\STM32\tuya\tuya_Lc_Progarm\IEMCS(FreeRTOS)\Project\JLinkSettings.ini"", ...). 
T0FD8 000:040.501 - 15.770ms returns 0x00
T0FD8 000:048.940 JLINK_ExecCommand("Device = STM32F103C8", ...). 
T0FD8 000:056.773   Device "STM32F103C8" selected.
T0FD8 000:057.940 - 8.966ms returns 0x00
T0FD8 000:057.984 JLINK_GetHardwareVersion()
T0FD8 000:058.001 - 0.024ms returns 93000
T0FD8 000:058.033 JLINK_GetDLLVersion()
T0FD8 000:058.097 - 0.072ms returns 68600
T0FD8 000:058.115 JLINK_GetOEMString(...)
T0FD8 000:058.133 JLINK_GetFirmwareString(...)
T0FD8 000:058.148 - 0.022ms
T0FD8 000:098.680 JLINK_GetDLLVersion()
T0FD8 000:098.722 - 0.050ms returns 68600
T0FD8 000:098.740 JLINK_GetCompileDateTime()
T0FD8 000:098.753 - 0.020ms
T0FD8 000:104.015 JLINK_GetFirmwareString(...)
T0FD8 000:104.085 - 0.077ms
T0FD8 000:110.814 JLINK_GetHardwareVersion()
T0FD8 000:110.849 - 0.043ms returns 93000
T0FD8 000:116.553 JLINK_GetSN()
T0FD8 000:116.596 - 0.050ms returns 59303802
T0FD8 000:121.524 JLINK_GetOEMString(...)
T0FD8 000:132.389 JLINK_TIF_Select(JLINKARM_TIF_SWD)
T0FD8 000:133.184 - 0.808ms returns 0x00
T0FD8 000:133.209 JLINK_HasError()
T0FD8 000:133.234 JLINK_SetSpeed(5000)
T0FD8 000:133.363 - 0.138ms
T0FD8 000:133.383 JLINK_GetId()
T0FD8 000:139.673   Found SW-DP with ID 0x1BA01477
T0FD8 000:157.504   Found SW-DP with ID 0x1BA01477
T0FD8 000:159.255   Old FW that does not support reading DPIDR via DAP jobs
T0FD8 000:165.057   Unknown DP version. Assuming DPv0
T0FD8 000:170.249   Scanning AP map to find all available APs
T0FD8 000:176.552   AP[1]: Stopped AP scan as end of AP map has been reached
T0FD8 000:181.875   AP[0]: AHB-AP (IDR: 0x14770011)
T0FD8 000:187.680   Iterating through AP map to find AHB-AP to use
T0FD8 000:194.448   AP[0]: Core found
T0FD8 000:199.845   AP[0]: AHB-AP ROM base: 0xE00FF000
T0FD8 000:205.992   CPUID register: 0x411FC231. Implementer code: 0x41 (ARM)
T0FD8 000:211.402   Found Cortex-M3 r1p1, Little endian.
T0FD8 000:312.539   -- Max. mem block: 0x00010BB0
T0FD8 000:312.617   CPU_ReadMem(4 bytes @ 0xE000EDF0)
T0FD8 000:313.096   CPU_ReadMem(4 bytes @ 0xE0002000)
T0FD8 000:319.975   FPUnit: 6 code (BP) slots and 2 literal slots
T0FD8 000:320.055   CPU_ReadMem(4 bytes @ 0xE000EDFC)
T0FD8 000:320.604   CPU_WriteMem(4 bytes @ 0xE000EDFC)
T0FD8 000:320.954   CPU_ReadMem(4 bytes @ 0xE0001000)
T0FD8 000:321.320   CPU_WriteMem(4 bytes @ 0xE0001000)
T0FD8 000:321.715   CPU_ReadMem(4 bytes @ 0xE000ED88)
T0FD8 000:322.197   CPU_WriteMem(4 bytes @ 0xE000ED88)
T0FD8 000:322.607   CPU_ReadMem(4 bytes @ 0xE000ED88)
T0FD8 000:322.910   CPU_WriteMem(4 bytes @ 0xE000ED88)
T0FD8 000:329.481   CoreSight components:
T0FD8 000:336.374   ROMTbl[0] @ E00FF000
T0FD8 000:336.463   CPU_ReadMem(64 bytes @ 0xE00FF000)
T0FD8 000:337.084   CPU_ReadMem(32 bytes @ 0xE000EFE0)
T0FD8 000:344.464   ROMTbl[0][0]: E000E000, CID: B105E00D, PID: 001BB000 SCS
T0FD8 000:344.521   CPU_ReadMem(32 bytes @ 0xE0001FE0)
T0FD8 000:354.676   ROMTbl[0][1]: E0001000, CID: B105E00D, PID: 001BB002 DWT
T0FD8 000:354.782   CPU_ReadMem(32 bytes @ 0xE0002FE0)
T0FD8 000:363.725   ROMTbl[0][2]: E0002000, CID: B105E00D, PID: 000BB003 FPB
T0FD8 000:363.809   CPU_ReadMem(32 bytes @ 0xE0000FE0)
T0FD8 000:371.610   ROMTbl[0][3]: E0000000, CID: B105E00D, PID: 001BB001 ITM
T0FD8 000:371.702   CPU_ReadMem(32 bytes @ 0xE0040FE0)
T0FD8 000:379.344   ROMTbl[0][4]: E0040000, CID: B105900D, PID: 001BB923 TPIU-Lite
T0FD8 000:379.920 - 246.551ms returns 0x1BA01477
T0FD8 000:379.964 JLINK_GetDLLVersion()
T0FD8 000:379.984 - 0.029ms returns 68600
T0FD8 000:380.010 JLINK_CORE_GetFound()
T0FD8 000:380.030 - 0.028ms returns 0x30000FF
T0FD8 000:380.056 JLINK_GetDebugInfo(0x100 = JLINKARM_ROM_TABLE_ADDR_INDEX)
T0FD8 000:380.077   Value=0xE00FF000
T0FD8 000:380.104 - 0.057ms returns 0
T0FD8 000:387.695 JLINK_GetDebugInfo(0x100 = JLINKARM_ROM_TABLE_ADDR_INDEX)
T0FD8 000:387.756   Value=0xE00FF000
T0FD8 000:387.811 - 0.128ms returns 0
T0FD8 000:387.836 JLINK_GetDebugInfo(0x101 = JLINKARM_DEBUG_INFO_ETM_ADDR_INDEX)
T0FD8 000:387.860   Value=0x00000000
T0FD8 000:387.888 - 0.064ms returns 0
T0FD8 000:387.931 JLINK_ReadMemEx(0xE0041FF0, 0x10 Bytes, Flags = 0x02000004)
T0FD8 000:388.021   CPU_ReadMem(16 bytes @ 0xE0041FF0)
T0FD8 000:388.548   Data:  00 00 00 00 00 00 00 00 00 00 00 00 00 00 00 00
T0FD8 000:388.621 - 0.702ms returns 16 (0x10)
T0FD8 000:388.663 JLINK_GetDebugInfo(0x102 = JLINKARM_DEBUG_INFO_MTB_ADDR_INDEX)
T0FD8 000:388.689   Value=0x00000000
T0FD8 000:388.721 - 0.069ms returns 0
T0FD8 000:388.746 JLINK_GetDebugInfo(0x103 = JLINKARM_DEBUG_INFO_TPIU_ADDR_INDEX)
T0FD8 000:388.773   Value=0xE0040000
T0FD8 000:388.803 - 0.067ms returns 0
T0FD8 000:388.824 JLINK_GetDebugInfo(0x104 = JLINKARM_DEBUG_INFO_ITM_ADDR_INDEX)
T0FD8 000:388.845   Value=0xE0000000
T0FD8 000:388.874 - 0.059ms returns 0
T0FD8 000:388.895 JLINK_GetDebugInfo(0x105 = JLINKARM_DEBUG_INFO_DWT_ADDR_INDEX)
T0FD8 000:388.916   Value=0xE0001000
T0FD8 000:388.945 - 0.058ms returns 0
T0FD8 000:388.966 JLINK_GetDebugInfo(0x106 = JLINKARM_DEBUG_INFO_FPB_ADDR_INDEX)
T0FD8 000:388.987   Value=0xE0002000
T0FD8 000:389.015 - 0.058ms returns 0
T0FD8 000:389.038 JLINK_GetDebugInfo(0x107 = JLINKARM_DEBUG_INFO_NVIC_ADDR_INDEX)
T0FD8 000:389.058   Value=0xE000E000
T0FD8 000:389.086 - 0.058ms returns 0
T0FD8 000:389.109 JLINK_GetDebugInfo(0x10C = JLINKARM_DEBUG_INFO_DBG_ADDR_INDEX)
T0FD8 000:389.129   Value=0xE000EDF0
T0FD8 000:389.159 - 0.060ms returns 0
T0FD8 000:389.182 JLINK_GetDebugInfo(0x01 = Unknown)
T0FD8 000:389.202   Value=0x00000000
T0FD8 000:389.232 - 0.060ms returns 0
T0FD8 000:389.255 JLINK_ReadMemU32(0xE000ED00, 0x1 Items)
T0FD8 000:389.315   CPU_ReadMem(4 bytes @ 0xE000ED00)
T0FD8 000:389.693   Data:  31 C2 1F 41
T0FD8 000:389.762   Debug reg: CPUID
T0FD8 000:389.792 - 0.546ms returns 1 (0x1)
T0FD8 000:389.821 JLINK_GetDebugInfo(0x10F = JLINKARM_DEBUG_INFO_HAS_CORTEX_M_SECURITY_EXT_INDEX)
T0FD8 000:389.841   Value=0x00000000
T0FD8 000:389.865 - 0.053ms returns 0
T0FD8 000:389.886 JLINK_HasError()
T0FD8 000:389.907 JLINK_SetResetType(JLINKARM_CM3_RESET_TYPE_NORMAL)
T0FD8 000:389.923 - 0.024ms returns JLINKARM_CM3_RESET_TYPE_NORMAL
T0FD8 000:389.941 JLINK_Reset()
T0FD8 000:389.996   CPU is running
T0FD8 000:390.027   CPU_WriteMem(4 bytes @ 0xE000EDF0)
T0FD8 000:390.444   CPU is running
T0FD8 000:390.477   CPU_WriteMem(4 bytes @ 0xE000EDFC)
T0FD8 000:397.165   Reset: Halt core after reset via DEMCR.VC_CORERESET.
T0FD8 000:404.380   Reset: Reset device via AIRCR.SYSRESETREQ.
T0FD8 000:404.456   CPU is running
T0FD8 000:404.493   CPU_WriteMem(4 bytes @ 0xE000ED0C)
T0FD8 000:457.283   CPU_ReadMem(4 bytes @ 0xE000EDF0)
T0FD8 000:457.617   CPU_ReadMem(4 bytes @ 0xE000EDF0)
T0FD8 000:457.952   CPU is running
T0FD8 000:457.984   CPU_WriteMem(4 bytes @ 0xE000EDF0)
T0FD8 000:458.322   CPU is running
T0FD8 000:458.353   CPU_WriteMem(4 bytes @ 0xE000EDFC)
T0FD8 000:464.064   CPU_ReadMem(4 bytes @ 0xE000EDF0)
T0FD8 000:466.877   CPU_WriteMem(4 bytes @ 0xE0002000)
T0FD8 000:467.337   CPU_ReadMem(4 bytes @ 0xE000EDFC)
T0FD8 000:467.629   CPU_ReadMem(4 bytes @ 0xE0001000)
T0FD8 000:467.958 - 78.028ms
T0FD8 000:467.998 JLINK_Halt()
T0FD8 000:468.018 - 0.029ms returns 0x00
T0FD8 000:468.045 JLINK_ReadMemU32(0xE000EDF0, 0x1 Items)
T0FD8 000:468.079   CPU_ReadMem(4 bytes @ 0xE000EDF0)
T0FD8 000:468.416   Data:  03 00 03 00
T0FD8 000:468.446   Debug reg: DHCSR
T0FD8 000:468.473 - 0.438ms returns 1 (0x1)
T0FD8 000:468.505 JLINK_WriteU32_64(0xE000EDF0, 0xA05F0003)
T0FD8 000:468.529   Debug reg: DHCSR
T0FD8 000:468.578   CPU_WriteMem(4 bytes @ 0xE000EDF0)
T0FD8 000:468.906 - 0.412ms returns 0 (0x00000000)
T0FD8 000:468.934 JLINK_WriteU32_64(0xE000EDFC, 0x01000000)
T0FD8 000:468.954   Debug reg: DEMCR
T0FD8 000:468.986   CPU_WriteMem(4 bytes @ 0xE000EDFC)
T0FD8 000:469.286 - 0.362ms returns 0 (0x00000000)
T0FD8 000:495.986 JLINK_GetHWStatus(...)
T0FD8 000:496.458 - 0.484ms returns 0
T0FD8 000:512.901 JLINK_GetNumBPUnits(Type = 0xFFFFFF00)
T0FD8 000:512.945 - 0.052ms returns 0x06
T0FD8 000:512.963 JLINK_GetNumBPUnits(Type = 0xF0)
T0FD8 000:512.978 - 0.021ms returns 0x2000
T0FD8 000:512.994 JLINK_GetNumWPUnits()
T0FD8 000:513.008 - 0.020ms returns 4
T0FD8 000:529.086 JLINK_GetSpeed()
T0FD8 000:529.128 - 0.049ms returns 4000
T0FD8 000:539.312 JLINK_ReadMemU32(0xE000E004, 0x1 Items)
T0FD8 000:539.389   CPU_ReadMem(4 bytes @ 0xE000E004)
T0FD8 000:539.753   Data:  01 00 00 00
T0FD8 000:539.775 - 0.470ms returns 1 (0x1)
T0FD8 000:539.795 JLINK_ReadMemU32(0xE000E004, 0x1 Items)
T0FD8 000:539.812   CPU_ReadMem(4 bytes @ 0xE000E004)
T0FD8 000:540.086   Data:  01 00 00 00
T0FD8 000:540.107 - 0.319ms returns 1 (0x1)
T0FD8 000:540.125 JLINK_WriteMemEx(0xE0001000, 0x0000001C Bytes, Flags = 0x02000004)
T0FD8 000:540.140   Data:  01 00 00 00 00 00 00 00 00 00 00 00 00 00 00 00 ...
T0FD8 000:540.812   CPU_WriteMem(28 bytes @ 0xE0001000)
T0FD8 000:541.259 - 1.144ms returns 0x1C
T0FD8 000:541.294 JLINK_Halt()
T0FD8 000:541.309 - 0.022ms returns 0x00
T0FD8 000:541.325 JLINK_IsHalted()
T0FD8 000:541.340 - 0.022ms returns TRUE
T0FD8 000:546.899 JLINK_WriteMem(0x20000000, 0x164 Bytes, ...)
T0FD8 000:546.928   Data:  00 BE 0A E0 0D 78 2D 06 68 40 08 24 40 00 00 D3 ...
T0FD8 000:547.400   CPU_WriteMem(356 bytes @ 0x20000000)
T0FD8 000:549.069 - 2.180ms returns 0x164
T0FD8 000:549.157 JLINK_HasError()
T0FD8 000:549.176 JLINK_WriteReg(R0, 0x08000000)
T0FD8 000:549.195 - 0.026ms returns 0
T0FD8 000:549.212 JLINK_WriteReg(R1, 0x00B71B00)
T0FD8 000:549.227 - 0.022ms returns 0
T0FD8 000:549.243 JLINK_WriteReg(R2, 0x00000001)
T0FD8 000:549.258 - 0.022ms returns 0
T0FD8 000:549.274 JLINK_WriteReg(R3, 0x00000000)
T0FD8 000:549.291 - 0.024ms returns 0
T0FD8 000:549.308 JLINK_WriteReg(R4, 0x00000000)
T0FD8 000:549.323 - 0.022ms returns 0
T0FD8 000:549.339 JLINK_WriteReg(R5, 0x00000000)
T0FD8 000:549.353 - 0.021ms returns 0
T0FD8 000:549.369 JLINK_WriteReg(R6, 0x00000000)
T0FD8 000:549.384 - 0.021ms returns 0
T0FD8 000:549.400 JLINK_WriteReg(R7, 0x00000000)
T0FD8 000:549.414 - 0.021ms returns 0
T0FD8 000:549.430 JLINK_WriteReg(R8, 0x00000000)
T0FD8 000:549.463 - 0.039ms returns 0
T0FD8 000:549.479 JLINK_WriteReg(R9, 0x20000160)
T0FD8 000:549.494 - 0.021ms returns 0
T0FD8 000:549.510 JLINK_WriteReg(R10, 0x00000000)
T0FD8 000:549.524 - 0.021ms returns 0
T0FD8 000:549.540 JLINK_WriteReg(R11, 0x00000000)
T0FD8 000:549.554 - 0.021ms returns 0
T0FD8 000:549.570 JLINK_WriteReg(R12, 0x00000000)
T0FD8 000:549.585 - 0.021ms returns 0
T0FD8 000:549.601 JLINK_WriteReg(R13 (SP), 0x20001000)
T0FD8 000:549.617 - 0.023ms returns 0
T0FD8 000:549.633 JLINK_WriteReg(R14, 0x20000001)
T0FD8 000:549.648 - 0.021ms returns 0
T0FD8 000:549.664 JLINK_WriteReg(R15 (PC), 0x20000038)
T0FD8 000:549.683 - 0.025ms returns 0
T0FD8 000:549.699 JLINK_WriteReg(XPSR, 0x01000000)
T0FD8 000:549.713 - 0.021ms returns 0
T0FD8 000:549.729 JLINK_WriteReg(MSP, 0x20001000)
T0FD8 000:549.743 - 0.021ms returns 0
T0FD8 000:549.758 JLINK_WriteReg(PSP, 0x20001000)
T0FD8 000:549.783 - 0.035ms returns 0
T0FD8 000:549.803 JLINK_WriteReg(CFBP, 0x00000000)
T0FD8 000:549.818 - 0.022ms returns 0
T0FD8 000:549.834 JLINK_SetBPEx(Addr = 0x20000000, Type = 0xFFFFFFF2)
T0FD8 000:549.856   CPU_ReadMem(2 bytes @ 0x20000000)
T0FD8 000:550.311 - 0.485ms returns 0x00000001
T0FD8 000:550.330 JLINK_Go()
T0FD8 000:550.348   CPU_WriteMem(2 bytes @ 0x20000000)
T0FD8 000:550.620   CPU_ReadMem(4 bytes @ 0xE0001000)
T0FD8 000:550.898   CPU_WriteMem(4 bytes @ 0xE0002008)
T0FD8 000:550.920   CPU_WriteMem(4 bytes @ 0xE000200C)
T0FD8 000:550.941   CPU_WriteMem(4 bytes @ 0xE0002010)
T0FD8 000:550.962   CPU_WriteMem(4 bytes @ 0xE0002014)
T0FD8 000:550.983   CPU_WriteMem(4 bytes @ 0xE0002018)
T0FD8 000:551.004   CPU_WriteMem(4 bytes @ 0xE000201C)
T0FD8 000:551.957   CPU_WriteMem(4 bytes @ 0xE0001004)
T0FD8 000:554.197 - 3.899ms
T0FD8 000:554.244 JLINK_IsHalted()
T0FD8 000:556.225   CPU_ReadMem(2 bytes @ 0x20000000)
T0FD8 000:556.540 - 2.306ms returns TRUE
T0FD8 000:556.566 JLINK_ReadReg(R15 (PC))
T0FD8 000:556.589 - 0.030ms returns 0x20000000
T0FD8 000:556.606 JLINK_ClrBPEx(BPHandle = 0x00000001)
T0FD8 000:556.621 - 0.022ms returns 0x00
T0FD8 000:556.637 JLINK_ReadReg(R0)
T0FD8 000:556.652 - 0.021ms returns 0x00000000
T0FD8 000:557.220 JLINK_HasError()
T0FD8 000:557.248 JLINK_WriteReg(R0, 0x08000000)
T0FD8 000:557.268 - 0.026ms returns 0
T0FD8 000:557.285 JLINK_WriteReg(R1, 0x00B71B00)
T0FD8 000:557.303 - 0.026ms returns 0
T0FD8 000:557.321 JLINK_WriteReg(R2, 0x00000001)
T0FD8 000:557.338 - 0.024ms returns 0
T0FD8 000:557.355 JLINK_WriteReg(R3, 0x00000000)
T0FD8 000:557.369 - 0.021ms returns 0
T0FD8 000:557.385 JLINK_WriteReg(R4, 0x00000000)
T0FD8 000:557.399 - 0.021ms returns 0
T0FD8 000:557.415 JLINK_WriteReg(R5, 0x00000000)
T0FD8 000:557.429 - 0.021ms returns 0
T0FD8 000:557.445 JLINK_WriteReg(R6, 0x00000000)
T0FD8 000:557.459 - 0.021ms returns 0
T0FD8 000:557.474 JLINK_WriteReg(R7, 0x00000000)
T0FD8 000:557.489 - 0.021ms returns 0
T0FD8 000:557.504 JLINK_WriteReg(R8, 0x00000000)
T0FD8 000:557.519 - 0.021ms returns 0
T0FD8 000:557.534 JLINK_WriteReg(R9, 0x20000160)
T0FD8 000:557.548 - 0.021ms returns 0
T0FD8 000:557.564 JLINK_WriteReg(R10, 0x00000000)
T0FD8 000:557.578 - 0.021ms returns 0
T0FD8 000:557.594 JLINK_WriteReg(R11, 0x00000000)
T0FD8 000:557.609 - 0.021ms returns 0
T0FD8 000:557.624 JLINK_WriteReg(R12, 0x00000000)
T0FD8 000:557.638 - 0.021ms returns 0
T0FD8 000:557.654 JLINK_WriteReg(R13 (SP), 0x20001000)
T0FD8 000:557.669 - 0.022ms returns 0
T0FD8 000:557.685 JLINK_WriteReg(R14, 0x20000001)
T0FD8 000:557.699 - 0.021ms returns 0
T0FD8 000:557.714 JLINK_WriteReg(R15 (PC), 0x2000007C)
T0FD8 000:557.729 - 0.021ms returns 0
T0FD8 000:557.744 JLINK_WriteReg(XPSR, 0x01000000)
T0FD8 000:557.759 - 0.021ms returns 0
T0FD8 000:557.774 JLINK_WriteReg(MSP, 0x20001000)
T0FD8 000:557.789 - 0.021ms returns 0
T0FD8 000:557.805 JLINK_WriteReg(PSP, 0x20001000)
T0FD8 000:557.819 - 0.021ms returns 0
T0FD8 000:557.834 JLINK_WriteReg(CFBP, 0x00000000)
T0FD8 000:557.849 - 0.021ms returns 0
T0FD8 000:557.864 JLINK_SetBPEx(Addr = 0x20000000, Type = 0xFFFFFFF2)
T0FD8 000:557.880 - 0.023ms returns 0x00000002
T0FD8 000:557.897 JLINK_Go()
T0FD8 000:557.925   CPU_ReadMem(4 bytes @ 0xE0001000)
T0FD8 000:560.317 - 2.430ms
T0FD8 000:560.338 JLINK_IsHalted()
T0FD8 000:560.590 - 0.259ms returns FALSE
T0FD8 000:560.608 JLINK_HasError()
T0FD8 000:589.326 JLINK_IsHalted()
T0FD8 000:591.635   CPU_ReadMem(2 bytes @ 0x20000000)
T0FD8 000:592.048 - 2.733ms returns TRUE
T0FD8 000:592.073 JLINK_ReadReg(R15 (PC))
T0FD8 000:592.095 - 0.028ms returns 0x20000000
T0FD8 000:592.111 JLINK_ClrBPEx(BPHandle = 0x00000002)
T0FD8 000:592.127 - 0.023ms returns 0x00
T0FD8 000:592.144 JLINK_ReadReg(R0)
T0FD8 000:592.158 - 0.022ms returns 0x00000000
T0FD8 000:644.788 JLINK_HasError()
T0FD8 000:644.837 JLINK_WriteReg(R0, 0x00000001)
T0FD8 000:644.862 - 0.032ms returns 0
T0FD8 000:644.879 JLINK_WriteReg(R1, 0x00B71B00)
T0FD8 000:644.894 - 0.022ms returns 0
T0FD8 000:645.026 JLINK_WriteReg(R2, 0x00000001)
T0FD8 000:645.050 - 0.031ms returns 0
T0FD8 000:645.067 JLINK_WriteReg(R3, 0x00000000)
T0FD8 000:645.082 - 0.022ms returns 0
T0FD8 000:645.098 JLINK_WriteReg(R4, 0x00000000)
T0FD8 000:645.113 - 0.021ms returns 0
T0FD8 000:645.129 JLINK_WriteReg(R5, 0x00000000)
T0FD8 000:645.143 - 0.021ms returns 0
T0FD8 000:645.159 JLINK_WriteReg(R6, 0x00000000)
T0FD8 000:645.174 - 0.021ms returns 0
T0FD8 000:645.189 JLINK_WriteReg(R7, 0x00000000)
T0FD8 000:645.204 - 0.021ms returns 0
T0FD8 000:645.219 JLINK_WriteReg(R8, 0x00000000)
T0FD8 000:645.234 - 0.021ms returns 0
T0FD8 000:645.254 JLINK_WriteReg(R9, 0x20000160)
T0FD8 000:645.269 - 0.022ms returns 0
T0FD8 000:645.284 JLINK_WriteReg(R10, 0x00000000)
T0FD8 000:645.299 - 0.021ms returns 0
T0FD8 000:645.315 JLINK_WriteReg(R11, 0x00000000)
T0FD8 000:645.329 - 0.021ms returns 0
T0FD8 000:645.345 JLINK_WriteReg(R12, 0x00000000)
T0FD8 000:645.359 - 0.021ms returns 0
T0FD8 000:645.376 JLINK_WriteReg(R13 (SP), 0x20001000)
T0FD8 000:645.392 - 0.023ms returns 0
T0FD8 000:645.407 JLINK_WriteReg(R14, 0x20000001)
T0FD8 000:645.421 - 0.021ms returns 0
T0FD8 000:645.437 JLINK_WriteReg(R15 (PC), 0x2000006A)
T0FD8 000:645.452 - 0.022ms returns 0
T0FD8 000:645.468 JLINK_WriteReg(XPSR, 0x01000000)
T0FD8 000:645.483 - 0.022ms returns 0
T0FD8 000:645.499 JLINK_WriteReg(MSP, 0x20001000)
T0FD8 000:645.513 - 0.021ms returns 0
T0FD8 000:645.528 JLINK_WriteReg(PSP, 0x20001000)
T0FD8 000:645.543 - 0.021ms returns 0
T0FD8 000:645.558 JLINK_WriteReg(CFBP, 0x00000000)
T0FD8 000:645.572 - 0.021ms returns 0
T0FD8 000:645.588 JLINK_SetBPEx(Addr = 0x20000000, Type = 0xFFFFFFF2)
T0FD8 000:645.604 - 0.023ms returns 0x00000003
T0FD8 000:645.620 JLINK_Go()
T0FD8 000:645.651   CPU_ReadMem(4 bytes @ 0xE0001000)
T0FD8 000:648.169 - 2.581ms
T0FD8 000:648.222 JLINK_IsHalted()
T0FD8 000:650.393   CPU_ReadMem(2 bytes @ 0x20000000)
T0FD8 000:650.745 - 2.530ms returns TRUE
T0FD8 000:650.773 JLINK_ReadReg(R15 (PC))
T0FD8 000:650.793 - 0.028ms returns 0x20000000
T0FD8 000:650.813 JLINK_ClrBPEx(BPHandle = 0x00000003)
T0FD8 000:650.828 - 0.022ms returns 0x00
T0FD8 000:650.848 JLINK_ReadReg(R0)
T0FD8 000:650.863 - 0.022ms returns 0x00000000
T0FD8 000:662.162 JLINK_WriteMem(0x20000000, 0x164 Bytes, ...)
T0FD8 000:662.192   Data:  00 BE 0A E0 0D 78 2D 06 68 40 08 24 40 00 00 D3 ...
T0FD8 000:662.234   CPU_WriteMem(356 bytes @ 0x20000000)
T0FD8 000:663.918 - 1.770ms returns 0x164
T0FD8 000:663.982 JLINK_HasError()
T0FD8 000:664.002 JLINK_WriteReg(R0, 0x08000000)
T0FD8 000:664.023 - 0.029ms returns 0
T0FD8 000:664.041 JLINK_WriteReg(R1, 0x00B71B00)
T0FD8 000:664.057 - 0.024ms returns 0
T0FD8 000:664.076 JLINK_WriteReg(R2, 0x00000002)
T0FD8 000:664.093 - 0.025ms returns 0
T0FD8 000:664.111 JLINK_WriteReg(R3, 0x00000000)
T0FD8 000:664.127 - 0.024ms returns 0
T0FD8 000:664.144 JLINK_WriteReg(R4, 0x00000000)
T0FD8 000:664.161 - 0.024ms returns 0
T0FD8 000:664.178 JLINK_WriteReg(R5, 0x00000000)
T0FD8 000:664.195 - 0.024ms returns 0
T0FD8 000:664.213 JLINK_WriteReg(R6, 0x00000000)
T0FD8 000:664.228 - 0.023ms returns 0
T0FD8 000:664.245 JLINK_WriteReg(R7, 0x00000000)
T0FD8 000:664.264 - 0.026ms returns 0
T0FD8 000:664.282 JLINK_WriteReg(R8, 0x00000000)
T0FD8 000:664.299 - 0.025ms returns 0
T0FD8 000:664.317 JLINK_WriteReg(R9, 0x20000160)
T0FD8 000:664.333 - 0.023ms returns 0
T0FD8 000:664.350 JLINK_WriteReg(R10, 0x00000000)
T0FD8 000:664.366 - 0.024ms returns 0
T0FD8 000:664.383 JLINK_WriteReg(R11, 0x00000000)
T0FD8 000:664.399 - 0.024ms returns 0
T0FD8 000:664.417 JLINK_WriteReg(R12, 0x00000000)
T0FD8 000:664.433 - 0.023ms returns 0
T0FD8 000:664.450 JLINK_WriteReg(R13 (SP), 0x20001000)
T0FD8 000:664.468 - 0.025ms returns 0
T0FD8 000:664.485 JLINK_WriteReg(R14, 0x20000001)
T0FD8 000:664.501 - 0.024ms returns 0
T0FD8 000:664.519 JLINK_WriteReg(R15 (PC), 0x20000038)
T0FD8 000:664.536 - 0.025ms returns 0
T0FD8 000:664.554 JLINK_WriteReg(XPSR, 0x01000000)
T0FD8 000:664.571 - 0.025ms returns 0
T0FD8 000:664.589 JLINK_WriteReg(MSP, 0x20001000)
T0FD8 000:664.614 - 0.039ms returns 0
T0FD8 000:664.639 JLINK_WriteReg(PSP, 0x20001000)
T0FD8 000:664.655 - 0.024ms returns 0
T0FD8 000:664.673 JLINK_WriteReg(CFBP, 0x00000000)
T0FD8 000:664.689 - 0.024ms returns 0
T0FD8 000:664.707 JLINK_SetBPEx(Addr = 0x20000000, Type = 0xFFFFFFF2)
T0FD8 000:664.729   CPU_ReadMem(2 bytes @ 0x20000000)
T0FD8 000:665.116 - 0.419ms returns 0x00000004
T0FD8 000:665.137 JLINK_Go()
T0FD8 000:665.157   CPU_WriteMem(2 bytes @ 0x20000000)
T0FD8 000:665.449   CPU_ReadMem(4 bytes @ 0xE0001000)
T0FD8 000:667.530 - 2.422ms
T0FD8 000:667.574 JLINK_IsHalted()
T0FD8 000:669.619   CPU_ReadMem(2 bytes @ 0x20000000)
T0FD8 000:669.982 - 2.441ms returns TRUE
T0FD8 000:670.033 JLINK_ReadReg(R15 (PC))
T0FD8 000:670.057 - 0.031ms returns 0x20000000
T0FD8 000:670.074 JLINK_ClrBPEx(BPHandle = 0x00000004)
T0FD8 000:670.089 - 0.022ms returns 0x00
T0FD8 000:670.106 JLINK_ReadReg(R0)
T0FD8 000:670.121 - 0.022ms returns 0x00000000
T0FD8 000:670.699 JLINK_WriteMem(0x20000164, 0x29C Bytes, ...)
T0FD8 000:670.723   Data:  70 28 00 20 9D 01 00 08 FF 6B 00 08 19 4E 00 08 ...
T0FD8 000:670.764   CPU_WriteMem(668 bytes @ 0x20000164)
T0FD8 000:673.657 - 2.997ms returns 0x29C
T0FD8 000:673.715 JLINK_WriteMem(0x20000400, 0x164 Bytes, ...)
T0FD8 000:673.734   Data:  2C BB 40 00 00 F1 80 70 00 EB C3 50 A0 F1 80 70 ...
T0FD8 000:673.815   CPU_WriteMem(356 bytes @ 0x20000400)
T0FD8 000:675.683 - 2.004ms returns 0x164
T0FD8 000:675.738 JLINK_HasError()
T0FD8 000:675.757 JLINK_WriteReg(R0, 0x08000000)
T0FD8 000:675.792 - 0.042ms returns 0
T0FD8 000:675.808 JLINK_WriteReg(R1, 0x00000400)
T0FD8 000:675.823 - 0.022ms returns 0
T0FD8 000:675.839 JLINK_WriteReg(R2, 0x20000164)
T0FD8 000:675.854 - 0.021ms returns 0
T0FD8 000:675.870 JLINK_WriteReg(R3, 0x00000000)
T0FD8 000:675.884 - 0.021ms returns 0
T0FD8 000:675.900 JLINK_WriteReg(R4, 0x00000000)
T0FD8 000:675.914 - 0.021ms returns 0
T0FD8 000:675.930 JLINK_WriteReg(R5, 0x00000000)
T0FD8 000:675.944 - 0.021ms returns 0
T0FD8 000:675.960 JLINK_WriteReg(R6, 0x00000000)
T0FD8 000:675.974 - 0.021ms returns 0
T0FD8 000:675.989 JLINK_WriteReg(R7, 0x00000000)
T0FD8 000:676.004 - 0.021ms returns 0
T0FD8 000:676.020 JLINK_WriteReg(R8, 0x00000000)
T0FD8 000:676.034 - 0.021ms returns 0
T0FD8 000:676.050 JLINK_WriteReg(R9, 0x20000160)
T0FD8 000:676.065 - 0.021ms returns 0
T0FD8 000:676.080 JLINK_WriteReg(R10, 0x00000000)
T0FD8 000:676.095 - 0.025ms returns 0
T0FD8 000:676.116 JLINK_WriteReg(R11, 0x00000000)
T0FD8 000:676.132 - 0.023ms returns 0
T0FD8 000:676.153 JLINK_WriteReg(R12, 0x00000000)
T0FD8 000:676.170 - 0.025ms returns 0
T0FD8 000:676.192 JLINK_WriteReg(R13 (SP), 0x20001000)
T0FD8 000:676.211 - 0.026ms returns 0
T0FD8 000:676.232 JLINK_WriteReg(R14, 0x20000001)
T0FD8 000:676.248 - 0.025ms returns 0
T0FD8 000:676.271 JLINK_WriteReg(R15 (PC), 0x200000F4)
T0FD8 000:676.288 - 0.025ms returns 0
T0FD8 000:676.310 JLINK_WriteReg(XPSR, 0x01000000)
T0FD8 000:676.329 - 0.026ms returns 0
T0FD8 000:676.349 JLINK_WriteReg(MSP, 0x20001000)
T0FD8 000:676.366 - 0.025ms returns 0
T0FD8 000:676.388 JLINK_WriteReg(PSP, 0x20001000)
T0FD8 000:676.406 - 0.025ms returns 0
T0FD8 000:676.428 JLINK_WriteReg(CFBP, 0x00000000)
T0FD8 000:676.444 - 0.025ms returns 0
T0FD8 000:676.467 JLINK_SetBPEx(Addr = 0x20000000, Type = 0xFFFFFFF2)
T0FD8 000:676.487 - 0.028ms returns 0x00000005
T0FD8 000:676.509 JLINK_Go()
T0FD8 000:676.538   CPU_ReadMem(4 bytes @ 0xE0001000)
T0FD8 000:678.899 - 2.423ms
T0FD8 000:678.953 JLINK_IsHalted()
T0FD8 000:679.201 - 0.256ms returns FALSE
T0FD8 000:679.223 JLINK_HasError()
T0FD8 000:684.552 JLINK_IsHalted()
T0FD8 000:685.049 - 0.505ms returns FALSE
T0FD8 000:685.069 JLINK_HasError()
T0FD8 000:687.145 JLINK_IsHalted()
T0FD8 000:687.658 - 0.521ms returns FALSE
T0FD8 000:687.679 JLINK_HasError()
T0FD8 000:689.641 JLINK_IsHalted()
T0FD8 000:690.090 - 0.462ms returns FALSE
T0FD8 000:690.117 JLINK_HasError()
T0FD8 000:691.737 JLINK_IsHalted()
T0FD8 000:692.237 - 0.511ms returns FALSE
T0FD8 000:692.275 JLINK_HasError()
T0FD8 000:693.607 JLINK_IsHalted()
T0FD8 000:694.044 - 0.446ms returns FALSE
T0FD8 000:694.063 JLINK_HasError()
T0FD8 000:695.273 JLINK_IsHalted()
T0FD8 000:695.647 - 0.383ms returns FALSE
T0FD8 000:695.668 JLINK_HasError()
T0FD8 000:697.164 JLINK_IsHalted()
T0FD8 000:697.519 - 0.369ms returns FALSE
T0FD8 000:697.548 JLINK_HasError()
T0FD8 000:699.275 JLINK_IsHalted()
T0FD8 000:699.646 - 0.380ms returns FALSE
T0FD8 000:699.667 JLINK_HasError()
T0FD8 000:701.781 JLINK_IsHalted()
T0FD8 000:702.267 - 0.497ms returns FALSE
T0FD8 000:702.294 JLINK_HasError()
T0FD8 000:703.714 JLINK_IsHalted()
T0FD8 000:704.156 - 0.450ms returns FALSE
T0FD8 000:704.174 JLINK_HasError()
T0FD8 000:705.279 JLINK_IsHalted()
T0FD8 000:705.614 - 0.343ms returns FALSE
T0FD8 000:705.633 JLINK_HasError()
T0FD8 000:706.851 JLINK_IsHalted()
T0FD8 000:707.222 - 0.380ms returns FALSE
T0FD8 000:707.243 JLINK_HasError()
T0FD8 000:709.363 JLINK_IsHalted()
T0FD8 000:711.578   CPU_ReadMem(2 bytes @ 0x20000000)
T0FD8 000:711.898 - 2.544ms returns TRUE
T0FD8 000:711.918 JLINK_ReadReg(R15 (PC))
T0FD8 000:711.937 - 0.025ms returns 0x20000000
T0FD8 000:711.953 JLINK_ClrBPEx(BPHandle = 0x00000005)
T0FD8 000:711.968 - 0.022ms returns 0x00
T0FD8 000:711.985 JLINK_ReadReg(R0)
T0FD8 000:712.000 - 0.021ms returns 0x00000000
T0FD8 000:712.955 JLINK_WriteMem(0x20000164, 0x29C Bytes, ...)
T0FD8 000:712.992   Data:  C7 F3 0A 00 C3 F3 0A 51 02 90 40 1A 01 90 40 28 ...
T0FD8 000:713.034   CPU_WriteMem(668 bytes @ 0x20000164)
T0FD8 000:715.979 - 3.061ms returns 0x29C
T0FD8 000:716.033 JLINK_WriteMem(0x20000400, 0x164 Bytes, ...)
T0FD8 000:716.049   Data:  82 EA 04 00 83 EA 05 01 08 43 05 D0 10 1B AB 41 ...
T0FD8 000:716.090   CPU_WriteMem(356 bytes @ 0x20000400)
T0FD8 000:718.094 - 2.096ms returns 0x164
T0FD8 000:718.148 JLINK_HasError()
T0FD8 000:718.167 JLINK_WriteReg(R0, 0x08000400)
T0FD8 000:718.192 - 0.032ms returns 0
T0FD8 000:718.208 JLINK_WriteReg(R1, 0x00000400)
T0FD8 000:718.223 - 0.022ms returns 0
T0FD8 000:718.239 JLINK_WriteReg(R2, 0x20000164)
T0FD8 000:718.254 - 0.022ms returns 0
T0FD8 000:718.271 JLINK_WriteReg(R3, 0x00000000)
T0FD8 000:718.285 - 0.021ms returns 0
T0FD8 000:718.301 JLINK_WriteReg(R4, 0x00000000)
T0FD8 000:718.316 - 0.021ms returns 0
T0FD8 000:718.331 JLINK_WriteReg(R5, 0x00000000)
T0FD8 000:718.346 - 0.021ms returns 0
T0FD8 000:718.362 JLINK_WriteReg(R6, 0x00000000)
T0FD8 000:718.376 - 0.021ms returns 0
T0FD8 000:718.391 JLINK_WriteReg(R7, 0x00000000)
T0FD8 000:718.406 - 0.021ms returns 0
T0FD8 000:718.422 JLINK_WriteReg(R8, 0x00000000)
T0FD8 000:718.436 - 0.021ms returns 0
T0FD8 000:718.452 JLINK_WriteReg(R9, 0x20000160)
T0FD8 000:718.466 - 0.021ms returns 0
T0FD8 000:718.482 JLINK_WriteReg(R10, 0x00000000)
T0FD8 000:718.496 - 0.021ms returns 0
T0FD8 000:718.512 JLINK_WriteReg(R11, 0x00000000)
T0FD8 000:718.526 - 0.021ms returns 0
T0FD8 000:718.542 JLINK_WriteReg(R12, 0x00000000)
T0FD8 000:718.556 - 0.021ms returns 0
T0FD8 000:718.572 JLINK_WriteReg(R13 (SP), 0x20001000)
T0FD8 000:718.615 - 0.050ms returns 0
T0FD8 000:718.631 JLINK_WriteReg(R14, 0x20000001)
T0FD8 000:718.645 - 0.021ms returns 0
T0FD8 000:718.661 JLINK_WriteReg(R15 (PC), 0x200000F4)
T0FD8 000:718.676 - 0.021ms returns 0
T0FD8 000:718.691 JLINK_WriteReg(XPSR, 0x01000000)
T0FD8 000:718.706 - 0.021ms returns 0
T0FD8 000:718.721 JLINK_WriteReg(MSP, 0x20001000)
T0FD8 000:718.735 - 0.021ms returns 0
T0FD8 000:718.751 JLINK_WriteReg(PSP, 0x20001000)
T0FD8 000:718.765 - 0.021ms returns 0
T0FD8 000:718.781 JLINK_WriteReg(CFBP, 0x00000000)
T0FD8 000:718.795 - 0.021ms returns 0
T0FD8 000:718.810 JLINK_SetBPEx(Addr = 0x20000000, Type = 0xFFFFFFF2)
T0FD8 000:718.827 - 0.023ms returns 0x00000006
T0FD8 000:718.843 JLINK_Go()
T0FD8 000:718.872   CPU_ReadMem(4 bytes @ 0xE0001000)
T0FD8 000:721.430 - 2.618ms
T0FD8 000:721.480 JLINK_IsHalted()
T0FD8 000:721.742 - 0.274ms returns FALSE
T0FD8 000:721.768 JLINK_HasError()
T0FD8 000:723.544 JLINK_IsHalted()
T0FD8 000:724.047 - 0.520ms returns FALSE
T0FD8 000:724.082 JLINK_HasError()
T0FD8 000:726.153 JLINK_IsHalted()
T0FD8 000:726.629 - 0.485ms returns FALSE
T0FD8 000:726.650 JLINK_HasError()
T0FD8 000:728.032 JLINK_IsHalted()
T0FD8 000:728.290 - 0.266ms returns FALSE
T0FD8 000:728.309 JLINK_HasError()
T0FD8 000:730.151 JLINK_IsHalted()
T0FD8 000:730.665 - 0.523ms returns FALSE
T0FD8 000:730.686 JLINK_HasError()
T0FD8 000:732.208 JLINK_IsHalted()
T0FD8 000:732.556 - 0.359ms returns FALSE
T0FD8 000:732.579 JLINK_HasError()
T0FD8 000:734.647 JLINK_IsHalted()
T0FD8 000:735.133 - 0.494ms returns FALSE
T0FD8 000:735.153 JLINK_HasError()
T0FD8 000:737.240 JLINK_IsHalted()
T0FD8 000:737.715 - 0.484ms returns FALSE
T0FD8 000:737.736 JLINK_HasError()
T0FD8 000:739.719 JLINK_IsHalted()
T0FD8 000:740.135 - 0.431ms returns FALSE
T0FD8 000:740.162 JLINK_HasError()
T0FD8 000:742.340 JLINK_IsHalted()
T0FD8 000:742.685 - 0.358ms returns FALSE
T0FD8 000:742.711 JLINK_HasError()
T0FD8 000:744.147 JLINK_IsHalted()
T0FD8 000:744.622 - 0.487ms returns FALSE
T0FD8 000:744.647 JLINK_HasError()
T0FD8 000:746.841 JLINK_IsHalted()
T0FD8 000:747.211 - 0.379ms returns FALSE
T0FD8 000:747.232 JLINK_HasError()
T0FD8 000:749.306 JLINK_IsHalted()
T0FD8 000:749.791 - 0.493ms returns FALSE
T0FD8 000:749.812 JLINK_HasError()
T0FD8 000:751.887 JLINK_IsHalted()
T0FD8 000:754.281   CPU_ReadMem(2 bytes @ 0x20000000)
T0FD8 000:754.624 - 2.747ms returns TRUE
T0FD8 000:754.654 JLINK_ReadReg(R15 (PC))
T0FD8 000:754.676 - 0.029ms returns 0x20000000
T0FD8 000:754.694 JLINK_ClrBPEx(BPHandle = 0x00000006)
T0FD8 000:754.710 - 0.023ms returns 0x00
T0FD8 000:754.729 JLINK_ReadReg(R0)
T0FD8 000:754.744 - 0.022ms returns 0x00000000
T0FD8 000:755.696 JLINK_WriteMem(0x20000164, 0x29C Bytes, ...)
T0FD8 000:755.734   Data:  00 28 01 DB C0 F1 00 40 00 29 01 DB C1 F1 00 41 ...
T0FD8 000:755.777   CPU_WriteMem(668 bytes @ 0x20000164)
T0FD8 000:758.650 - 2.983ms returns 0x29C
T0FD8 000:758.695 JLINK_WriteMem(0x20000400, 0x164 Bytes, ...)
T0FD8 000:758.712   Data:  01 00 F0 B1 20 68 80 68 20 F0 01 00 21 68 88 60 ...
T0FD8 000:758.750   CPU_WriteMem(356 bytes @ 0x20000400)
T0FD8 000:760.689 - 2.029ms returns 0x164
T0FD8 000:760.743 JLINK_HasError()
T0FD8 000:760.761 JLINK_WriteReg(R0, 0x08000800)
T0FD8 000:760.787 - 0.032ms returns 0
T0FD8 000:760.803 JLINK_WriteReg(R1, 0x00000400)
T0FD8 000:760.818 - 0.022ms returns 0
T0FD8 000:760.834 JLINK_WriteReg(R2, 0x20000164)
T0FD8 000:760.849 - 0.022ms returns 0
T0FD8 000:760.865 JLINK_WriteReg(R3, 0x00000000)
T0FD8 000:760.880 - 0.022ms returns 0
T0FD8 000:760.895 JLINK_WriteReg(R4, 0x00000000)
T0FD8 000:760.910 - 0.021ms returns 0
T0FD8 000:760.926 JLINK_WriteReg(R5, 0x00000000)
T0FD8 000:760.940 - 0.021ms returns 0
T0FD8 000:760.956 JLINK_WriteReg(R6, 0x00000000)
T0FD8 000:760.970 - 0.021ms returns 0
T0FD8 000:760.986 JLINK_WriteReg(R7, 0x00000000)
T0FD8 000:761.000 - 0.021ms returns 0
T0FD8 000:761.016 JLINK_WriteReg(R8, 0x00000000)
T0FD8 000:761.031 - 0.021ms returns 0
T0FD8 000:761.046 JLINK_WriteReg(R9, 0x20000160)
T0FD8 000:761.061 - 0.021ms returns 0
T0FD8 000:761.076 JLINK_WriteReg(R10, 0x00000000)
T0FD8 000:761.091 - 0.021ms returns 0
T0FD8 000:761.107 JLINK_WriteReg(R11, 0x00000000)
T0FD8 000:761.121 - 0.021ms returns 0
T0FD8 000:761.137 JLINK_WriteReg(R12, 0x00000000)
T0FD8 000:761.151 - 0.028ms returns 0
T0FD8 000:761.174 JLINK_WriteReg(R13 (SP), 0x20001000)
T0FD8 000:761.218 - 0.050ms returns 0
T0FD8 000:761.233 JLINK_WriteReg(R14, 0x20000001)
T0FD8 000:761.247 - 0.021ms returns 0
T0FD8 000:761.262 JLINK_WriteReg(R15 (PC), 0x200000F4)
T0FD8 000:761.277 - 0.021ms returns 0
T0FD8 000:761.293 JLINK_WriteReg(XPSR, 0x01000000)
T0FD8 000:761.307 - 0.021ms returns 0
T0FD8 000:761.323 JLINK_WriteReg(MSP, 0x20001000)
T0FD8 000:761.337 - 0.021ms returns 0
T0FD8 000:761.352 JLINK_WriteReg(PSP, 0x20001000)
T0FD8 000:761.367 - 0.021ms returns 0
T0FD8 000:761.383 JLINK_WriteReg(CFBP, 0x00000000)
T0FD8 000:761.397 - 0.021ms returns 0
T0FD8 000:761.412 JLINK_SetBPEx(Addr = 0x20000000, Type = 0xFFFFFFF2)
T0FD8 000:761.542 - 0.143ms returns 0x00000007
T0FD8 000:761.565 JLINK_Go()
T0FD8 000:761.594   CPU_ReadMem(4 bytes @ 0xE0001000)
T0FD8 000:764.121 - 2.565ms
T0FD8 000:764.141 JLINK_IsHalted()
T0FD8 000:764.388 - 0.255ms returns FALSE
T0FD8 000:764.407 JLINK_HasError()
T0FD8 000:765.739 JLINK_IsHalted()
T0FD8 000:766.230 - 0.499ms returns FALSE
T0FD8 000:766.251 JLINK_HasError()
T0FD8 000:768.454 JLINK_IsHalted()
T0FD8 000:768.950 - 0.505ms returns FALSE
T0FD8 000:768.971 JLINK_HasError()
T0FD8 000:771.056 JLINK_IsHalted()
T0FD8 000:771.642 - 0.598ms returns FALSE
T0FD8 000:771.671 JLINK_HasError()
T0FD8 000:773.032 JLINK_IsHalted()
T0FD8 000:773.320 - 0.305ms returns FALSE
T0FD8 000:773.351 JLINK_HasError()
T0FD8 000:775.102 JLINK_IsHalted()
T0FD8 000:775.461 - 0.371ms returns FALSE
T0FD8 000:775.488 JLINK_HasError()
T0FD8 000:777.430 JLINK_IsHalted()
T0FD8 000:777.945 - 0.523ms returns FALSE
T0FD8 000:777.963 JLINK_HasError()
T0FD8 000:779.173 JLINK_IsHalted()
T0FD8 000:779.666 - 0.503ms returns FALSE
T0FD8 000:779.692 JLINK_HasError()
T0FD8 000:781.168 JLINK_IsHalted()
T0FD8 000:781.537 - 0.377ms returns FALSE
T0FD8 000:781.557 JLINK_HasError()
T0FD8 000:783.751 JLINK_IsHalted()
T0FD8 000:784.125 - 0.382ms returns FALSE
T0FD8 000:784.145 JLINK_HasError()
T0FD8 000:785.755 JLINK_IsHalted()
T0FD8 000:786.131 - 0.385ms returns FALSE
T0FD8 000:786.153 JLINK_HasError()
T0FD8 000:788.153 JLINK_IsHalted()
T0FD8 000:788.447 - 0.314ms returns FALSE
T0FD8 000:788.482 JLINK_HasError()
T0FD8 000:792.132 JLINK_IsHalted()
T0FD8 000:792.479 - 0.363ms returns FALSE
T0FD8 000:792.511 JLINK_HasError()
T0FD8 000:794.132 JLINK_IsHalted()
T0FD8 000:794.612 - 0.495ms returns FALSE
T0FD8 000:794.644 JLINK_HasError()
T0FD8 000:796.132 JLINK_IsHalted()
T0FD8 000:798.371   CPU_ReadMem(2 bytes @ 0x20000000)
T0FD8 000:798.654 - 2.531ms returns TRUE
T0FD8 000:798.679 JLINK_ReadReg(R15 (PC))
T0FD8 000:798.701 - 0.029ms returns 0x20000000
T0FD8 000:798.718 JLINK_ClrBPEx(BPHandle = 0x00000007)
T0FD8 000:798.733 - 0.022ms returns 0x00
T0FD8 000:798.750 JLINK_ReadReg(R0)
T0FD8 000:798.765 - 0.021ms returns 0x00000000
T0FD8 000:799.623 JLINK_WriteMem(0x20000164, 0x29C Bytes, ...)
T0FD8 000:799.684   Data:  68 00 00 00 43 6F 6D 70 61 6E 79 3A 58 58 58 58 ...
T0FD8 000:799.734   CPU_WriteMem(668 bytes @ 0x20000164)
T0FD8 000:802.861 - 3.290ms returns 0x29C
T0FD8 000:802.942 JLINK_WriteMem(0x20000400, 0x164 Bytes, ...)
T0FD8 000:802.966   Data:  0F D1 31 48 00 78 02 28 0B D1 30 48 00 78 40 06 ...
T0FD8 000:803.025   CPU_WriteMem(356 bytes @ 0x20000400)
T0FD8 000:805.075 - 2.171ms returns 0x164
T0FD8 000:805.134 JLINK_HasError()
T0FD8 000:805.157 JLINK_WriteReg(R0, 0x08000C00)
T0FD8 000:805.256 - 0.121ms returns 0
T0FD8 000:805.297 JLINK_WriteReg(R1, 0x00000400)
T0FD8 000:805.314 - 0.024ms returns 0
T0FD8 000:805.336 JLINK_WriteReg(R2, 0x20000164)
T0FD8 000:805.351 - 0.022ms returns 0
T0FD8 000:805.371 JLINK_WriteReg(R3, 0x00000000)
T0FD8 000:805.386 - 0.022ms returns 0
T0FD8 000:805.404 JLINK_WriteReg(R4, 0x00000000)
T0FD8 000:805.420 - 0.022ms returns 0
T0FD8 000:805.438 JLINK_WriteReg(R5, 0x00000000)
T0FD8 000:805.453 - 0.021ms returns 0
T0FD8 000:805.472 JLINK_WriteReg(R6, 0x00000000)
T0FD8 000:805.487 - 0.022ms returns 0
T0FD8 000:805.508 JLINK_WriteReg(R7, 0x00000000)
T0FD8 000:805.524 - 0.023ms returns 0
T0FD8 000:805.544 JLINK_WriteReg(R8, 0x00000000)
T0FD8 000:805.560 - 0.023ms returns 0
T0FD8 000:805.581 JLINK_WriteReg(R9, 0x20000160)
T0FD8 000:805.595 - 0.021ms returns 0
T0FD8 000:805.614 JLINK_WriteReg(R10, 0x00000000)
T0FD8 000:805.629 - 0.022ms returns 0
T0FD8 000:805.648 JLINK_WriteReg(R11, 0x00000000)
T0FD8 000:805.663 - 0.022ms returns 0
T0FD8 000:805.682 JLINK_WriteReg(R12, 0x00000000)
T0FD8 000:805.696 - 0.021ms returns 0
T0FD8 000:805.716 JLINK_WriteReg(R13 (SP), 0x20001000)
T0FD8 000:805.732 - 0.023ms returns 0
T0FD8 000:805.751 JLINK_WriteReg(R14, 0x20000001)
T0FD8 000:805.766 - 0.021ms returns 0
T0FD8 000:805.785 JLINK_WriteReg(R15 (PC), 0x200000F4)
T0FD8 000:805.819 - 0.040ms returns 0
T0FD8 000:805.839 JLINK_WriteReg(XPSR, 0x01000000)
T0FD8 000:805.854 - 0.022ms returns 0
T0FD8 000:805.873 JLINK_WriteReg(MSP, 0x20001000)
T0FD8 000:805.888 - 0.022ms returns 0
T0FD8 000:805.908 JLINK_WriteReg(PSP, 0x20001000)
T0FD8 000:805.923 - 0.022ms returns 0
T0FD8 000:805.945 JLINK_WriteReg(CFBP, 0x00000000)
T0FD8 000:805.961 - 0.023ms returns 0
T0FD8 000:806.056 JLINK_SetBPEx(Addr = 0x20000000, Type = 0xFFFFFFF2)
T0FD8 000:806.076 - 0.027ms returns 0x00000008
T0FD8 000:806.094 JLINK_Go()
T0FD8 000:806.125   CPU_ReadMem(4 bytes @ 0xE0001000)
T0FD8 000:808.593 - 2.545ms
T0FD8 000:808.659 JLINK_IsHalted()
T0FD8 000:808.950 - 0.301ms returns FALSE
T0FD8 000:808.975 JLINK_HasError()
T0FD8 000:811.093 JLINK_IsHalted()
T0FD8 000:811.656 - 0.574ms returns FALSE
T0FD8 000:811.683 JLINK_HasError()
T0FD8 000:813.749 JLINK_IsHalted()
T0FD8 000:814.234 - 0.493ms returns FALSE
T0FD8 000:814.255 JLINK_HasError()
T0FD8 000:816.251 JLINK_IsHalted()
T0FD8 000:816.605 - 0.363ms returns FALSE
T0FD8 000:816.626 JLINK_HasError()
T0FD8 000:818.295 JLINK_IsHalted()
T0FD8 000:818.582 - 0.300ms returns FALSE
T0FD8 000:818.608 JLINK_HasError()
T0FD8 000:820.268 JLINK_IsHalted()
T0FD8 000:820.774 - 0.522ms returns FALSE
T0FD8 000:820.805 JLINK_HasError()
T0FD8 000:822.267 JLINK_IsHalted()
T0FD8 000:822.634 - 0.384ms returns FALSE
T0FD8 000:822.666 JLINK_HasError()
T0FD8 000:824.264 JLINK_IsHalted()
T0FD8 000:824.772 - 0.545ms returns FALSE
T0FD8 000:824.831 JLINK_HasError()
T0FD8 000:826.291 JLINK_IsHalted()
T0FD8 000:826.693 - 0.413ms returns FALSE
T0FD8 000:826.717 JLINK_HasError()
T0FD8 000:828.384 JLINK_IsHalted()
T0FD8 000:828.798 - 0.424ms returns FALSE
T0FD8 000:828.820 JLINK_HasError()
T0FD8 000:830.243 JLINK_IsHalted()
T0FD8 000:830.619 - 0.384ms returns FALSE
T0FD8 000:830.639 JLINK_HasError()
T0FD8 000:832.339 JLINK_IsHalted()
T0FD8 000:832.819 - 0.488ms returns FALSE
T0FD8 000:832.839 JLINK_HasError()
T0FD8 000:834.223 JLINK_IsHalted()
T0FD8 000:834.683 - 0.468ms returns FALSE
T0FD8 000:834.702 JLINK_HasError()
T0FD8 000:838.686 JLINK_IsHalted()
T0FD8 000:839.047 - 0.370ms returns FALSE
T0FD8 000:839.068 JLINK_HasError()
T0FD8 000:841.198 JLINK_IsHalted()
T0FD8 000:843.696   CPU_ReadMem(2 bytes @ 0x20000000)
T0FD8 000:844.136 - 2.949ms returns TRUE
T0FD8 000:844.166 JLINK_ReadReg(R15 (PC))
T0FD8 000:844.194 - 0.037ms returns 0x20000000
T0FD8 000:844.216 JLINK_ClrBPEx(BPHandle = 0x00000008)
T0FD8 000:844.236 - 0.030ms returns 0x00
T0FD8 000:844.258 JLINK_ReadReg(R0)
T0FD8 000:844.278 - 0.029ms returns 0x00000000
T0FD8 000:845.251 JLINK_WriteMem(0x20000164, 0x29C Bytes, ...)
T0FD8 000:845.278   Data:  4D D1 41 E0 92 48 40 7A C0 43 91 49 48 72 08 46 ...
T0FD8 000:845.316   CPU_WriteMem(668 bytes @ 0x20000164)
T0FD8 000:848.208 - 2.994ms returns 0x29C
T0FD8 000:848.263 JLINK_WriteMem(0x20000400, 0x164 Bytes, ...)
T0FD8 000:848.279   Data:  3A 41 55 54 4F 00 00 00 4D 4F 44 45 3A 4F 50 45 ...
T0FD8 000:848.320   CPU_WriteMem(356 bytes @ 0x20000400)
T0FD8 000:849.973 - 1.732ms returns 0x164
T0FD8 000:850.013 JLINK_HasError()
T0FD8 000:850.037 JLINK_WriteReg(R0, 0x08001000)
T0FD8 000:850.064 - 0.036ms returns 0
T0FD8 000:850.084 JLINK_WriteReg(R1, 0x00000400)
T0FD8 000:850.103 - 0.027ms returns 0
T0FD8 000:850.122 JLINK_WriteReg(R2, 0x20000164)
T0FD8 000:850.141 - 0.027ms returns 0
T0FD8 000:850.160 JLINK_WriteReg(R3, 0x00000000)
T0FD8 000:850.178 - 0.026ms returns 0
T0FD8 000:850.197 JLINK_WriteReg(R4, 0x00000000)
T0FD8 000:850.216 - 0.027ms returns 0
T0FD8 000:850.235 JLINK_WriteReg(R5, 0x00000000)
T0FD8 000:850.252 - 0.026ms returns 0
T0FD8 000:850.272 JLINK_WriteReg(R6, 0x00000000)
T0FD8 000:850.289 - 0.025ms returns 0
T0FD8 000:850.308 JLINK_WriteReg(R7, 0x00000000)
T0FD8 000:850.325 - 0.025ms returns 0
T0FD8 000:850.344 JLINK_WriteReg(R8, 0x00000000)
T0FD8 000:850.362 - 0.027ms returns 0
T0FD8 000:850.382 JLINK_WriteReg(R9, 0x20000160)
T0FD8 000:850.400 - 0.037ms returns 0
T0FD8 000:850.437 JLINK_WriteReg(R10, 0x00000000)
T0FD8 000:850.455 - 0.026ms returns 0
T0FD8 000:850.474 JLINK_WriteReg(R11, 0x00000000)
T0FD8 000:850.492 - 0.026ms returns 0
T0FD8 000:850.511 JLINK_WriteReg(R12, 0x00000000)
T0FD8 000:850.529 - 0.027ms returns 0
T0FD8 000:850.550 JLINK_WriteReg(R13 (SP), 0x20001000)
T0FD8 000:850.577 - 0.063ms returns 0
T0FD8 000:850.624 JLINK_WriteReg(R14, 0x20000001)
T0FD8 000:850.641 - 0.026ms returns 0
T0FD8 000:850.660 JLINK_WriteReg(R15 (PC), 0x200000F4)
T0FD8 000:850.702 - 0.050ms returns 0
T0FD8 000:850.720 JLINK_WriteReg(XPSR, 0x01000000)
T0FD8 000:850.739 - 0.037ms returns 0
T0FD8 000:850.767 JLINK_WriteReg(MSP, 0x20001000)
T0FD8 000:850.788 - 0.029ms returns 0
T0FD8 000:850.807 JLINK_WriteReg(PSP, 0x20001000)
T0FD8 000:850.825 - 0.026ms returns 0
T0FD8 000:850.845 JLINK_WriteReg(CFBP, 0x00000000)
T0FD8 000:850.862 - 0.026ms returns 0
T0FD8 000:850.881 JLINK_SetBPEx(Addr = 0x20000000, Type = 0xFFFFFFF2)
T0FD8 000:850.901 - 0.029ms returns 0x00000009
T0FD8 000:850.921 JLINK_Go()
T0FD8 000:850.953   CPU_ReadMem(4 bytes @ 0xE0001000)
T0FD8 000:853.270 - 2.366ms
T0FD8 000:853.302 JLINK_IsHalted()
T0FD8 000:853.551 - 0.257ms returns FALSE
T0FD8 000:853.570 JLINK_HasError()
T0FD8 000:854.782 JLINK_IsHalted()
T0FD8 000:855.167 - 0.398ms returns FALSE
T0FD8 000:855.194 JLINK_HasError()
T0FD8 000:857.280 JLINK_IsHalted()
T0FD8 000:857.626 - 0.355ms returns FALSE
T0FD8 000:857.647 JLINK_HasError()
T0FD8 000:859.386 JLINK_IsHalted()
T0FD8 000:859.775 - 0.397ms returns FALSE
T0FD8 000:859.795 JLINK_HasError()
T0FD8 000:861.879 JLINK_IsHalted()
T0FD8 000:862.359 - 0.489ms returns FALSE
T0FD8 000:862.380 JLINK_HasError()
T0FD8 000:864.343 JLINK_IsHalted()
T0FD8 000:864.666 - 0.331ms returns FALSE
T0FD8 000:864.685 JLINK_HasError()
T0FD8 000:865.891 JLINK_IsHalted()
T0FD8 000:866.260 - 0.377ms returns FALSE
T0FD8 000:866.281 JLINK_HasError()
T0FD8 000:868.332 JLINK_IsHalted()
T0FD8 000:868.754 - 0.435ms returns FALSE
T0FD8 000:868.782 JLINK_HasError()
T0FD8 000:870.877 JLINK_IsHalted()
T0FD8 000:871.363 - 0.495ms returns FALSE
T0FD8 000:871.383 JLINK_HasError()
T0FD8 000:873.358 JLINK_IsHalted()
T0FD8 000:873.975 - 0.626ms returns FALSE
T0FD8 000:873.996 JLINK_HasError()
T0FD8 000:876.052 JLINK_IsHalted()
T0FD8 000:876.542 - 0.498ms returns FALSE
T0FD8 000:876.562 JLINK_HasError()
T0FD8 000:878.796 JLINK_IsHalted()
T0FD8 000:879.147 - 0.367ms returns FALSE
T0FD8 000:879.178 JLINK_HasError()
T0FD8 000:881.665 JLINK_IsHalted()
T0FD8 000:882.089 - 0.433ms returns FALSE
T0FD8 000:882.115 JLINK_HasError()
T0FD8 000:883.664 JLINK_IsHalted()
T0FD8 000:884.047 - 0.392ms returns FALSE
T0FD8 000:884.069 JLINK_HasError()
T0FD8 000:885.549 JLINK_IsHalted()
T0FD8 000:887.513   CPU_ReadMem(2 bytes @ 0x20000000)
T0FD8 000:887.994 - 2.454ms returns TRUE
T0FD8 000:888.014 JLINK_ReadReg(R15 (PC))
T0FD8 000:888.033 - 0.025ms returns 0x20000000
T0FD8 000:888.049 JLINK_ClrBPEx(BPHandle = 0x00000009)
T0FD8 000:888.065 - 0.023ms returns 0x00
T0FD8 000:888.083 JLINK_ReadReg(R0)
T0FD8 000:888.097 - 0.022ms returns 0x00000000
T0FD8 000:889.230 JLINK_WriteMem(0x20000164, 0x29C Bytes, ...)
T0FD8 000:889.273   Data:  2E 00 76 A3 00 22 11 46 02 20 05 F0 BC FB 30 E0 ...
T0FD8 000:889.330   CPU_WriteMem(668 bytes @ 0x20000164)
T0FD8 000:892.484 - 3.289ms returns 0x29C
T0FD8 000:892.537 JLINK_WriteMem(0x20000400, 0x164 Bytes, ...)
T0FD8 000:892.553   Data:  30 66 25 25 20 20 00 00 00 00 7A 44 B9 E2 20 C7 ...
T0FD8 000:892.594   CPU_WriteMem(356 bytes @ 0x20000400)
T0FD8 000:894.643 - 2.142ms returns 0x164
T0FD8 000:894.697 JLINK_HasError()
T0FD8 000:894.716 JLINK_WriteReg(R0, 0x08001400)
T0FD8 000:894.742 - 0.033ms returns 0
T0FD8 000:894.758 JLINK_WriteReg(R1, 0x00000400)
T0FD8 000:894.774 - 0.022ms returns 0
T0FD8 000:894.790 JLINK_WriteReg(R2, 0x20000164)
T0FD8 000:894.805 - 0.022ms returns 0
T0FD8 000:894.821 JLINK_WriteReg(R3, 0x00000000)
T0FD8 000:894.836 - 0.021ms returns 0
T0FD8 000:894.852 JLINK_WriteReg(R4, 0x00000000)
T0FD8 000:894.877 - 0.039ms returns 0
T0FD8 000:894.900 JLINK_WriteReg(R5, 0x00000000)
T0FD8 000:894.915 - 0.022ms returns 0
T0FD8 000:894.931 JLINK_WriteReg(R6, 0x00000000)
T0FD8 000:894.945 - 0.021ms returns 0
T0FD8 000:894.961 JLINK_WriteReg(R7, 0x00000000)
T0FD8 000:894.976 - 0.021ms returns 0
T0FD8 000:894.992 JLINK_WriteReg(R8, 0x00000000)
T0FD8 000:895.007 - 0.021ms returns 0
T0FD8 000:895.023 JLINK_WriteReg(R9, 0x20000160)
T0FD8 000:895.037 - 0.021ms returns 0
T0FD8 000:895.053 JLINK_WriteReg(R10, 0x00000000)
T0FD8 000:895.068 - 0.021ms returns 0
T0FD8 000:895.084 JLINK_WriteReg(R11, 0x00000000)
T0FD8 000:895.099 - 0.022ms returns 0
T0FD8 000:895.115 JLINK_WriteReg(R12, 0x00000000)
T0FD8 000:895.157 - 0.048ms returns 0
T0FD8 000:895.173 JLINK_WriteReg(R13 (SP), 0x20001000)
T0FD8 000:895.188 - 0.022ms returns 0
T0FD8 000:895.204 JLINK_WriteReg(R14, 0x20000001)
T0FD8 000:895.218 - 0.021ms returns 0
T0FD8 000:895.234 JLINK_WriteReg(R15 (PC), 0x200000F4)
T0FD8 000:895.249 - 0.022ms returns 0
T0FD8 000:895.264 JLINK_WriteReg(XPSR, 0x01000000)
T0FD8 000:895.279 - 0.021ms returns 0
T0FD8 000:895.294 JLINK_WriteReg(MSP, 0x20001000)
T0FD8 000:895.309 - 0.021ms returns 0
T0FD8 000:895.324 JLINK_WriteReg(PSP, 0x20001000)
T0FD8 000:895.339 - 0.021ms returns 0
T0FD8 000:895.354 JLINK_WriteReg(CFBP, 0x00000000)
T0FD8 000:895.369 - 0.021ms returns 0
T0FD8 000:895.385 JLINK_SetBPEx(Addr = 0x20000000, Type = 0xFFFFFFF2)
T0FD8 000:895.401 - 0.023ms returns 0x0000000A
T0FD8 000:895.417 JLINK_Go()
T0FD8 000:895.445   CPU_ReadMem(4 bytes @ 0xE0001000)
T0FD8 000:897.939 - 2.531ms
T0FD8 000:897.959 JLINK_IsHalted()
T0FD8 000:898.203 - 0.252ms returns FALSE
T0FD8 000:898.222 JLINK_HasError()
T0FD8 000:901.846 JLINK_IsHalted()
T0FD8 000:902.222 - 0.384ms returns FALSE
T0FD8 000:902.242 JLINK_HasError()
T0FD8 000:904.326 JLINK_IsHalted()
T0FD8 000:904.962 - 0.648ms returns FALSE
T0FD8 000:904.993 JLINK_HasError()
T0FD8 000:906.755 JLINK_IsHalted()
T0FD8 000:907.230 - 0.484ms returns FALSE
T0FD8 000:907.254 JLINK_HasError()
T0FD8 000:909.166 JLINK_IsHalted()
T0FD8 000:909.514 - 0.359ms returns FALSE
T0FD8 000:909.539 JLINK_HasError()
T0FD8 000:911.153 JLINK_IsHalted()
T0FD8 000:911.526 - 0.382ms returns FALSE
T0FD8 000:911.547 JLINK_HasError()
T0FD8 000:913.633 JLINK_IsHalted()
T0FD8 000:914.113 - 0.489ms returns FALSE
T0FD8 000:914.134 JLINK_HasError()
T0FD8 000:916.218 JLINK_IsHalted()
T0FD8 000:916.708 - 0.501ms returns FALSE
T0FD8 000:916.734 JLINK_HasError()
T0FD8 000:918.819 JLINK_IsHalted()
T0FD8 000:919.396 - 0.587ms returns FALSE
T0FD8 000:919.422 JLINK_HasError()
T0FD8 000:920.748 JLINK_IsHalted()
T0FD8 000:921.092 - 0.352ms returns FALSE
T0FD8 000:921.111 JLINK_HasError()
T0FD8 000:922.223 JLINK_IsHalted()
T0FD8 000:922.765 - 0.566ms returns FALSE
T0FD8 000:922.805 JLINK_HasError()
T0FD8 000:924.936 JLINK_IsHalted()
T0FD8 000:925.415 - 0.502ms returns FALSE
T0FD8 000:925.481 JLINK_HasError()
T0FD8 000:926.781 JLINK_IsHalted()
T0FD8 000:927.156 - 0.383ms returns FALSE
T0FD8 000:927.176 JLINK_HasError()
T0FD8 000:929.249 JLINK_IsHalted()
T0FD8 000:931.560   CPU_ReadMem(2 bytes @ 0x20000000)
T0FD8 000:931.902 - 2.662ms returns TRUE
T0FD8 000:931.923 JLINK_ReadReg(R15 (PC))
T0FD8 000:931.942 - 0.026ms returns 0x20000000
T0FD8 000:931.959 JLINK_ClrBPEx(BPHandle = 0x0000000A)
T0FD8 000:931.974 - 0.022ms returns 0x00
T0FD8 000:931.991 JLINK_ReadReg(R0)
T0FD8 000:932.006 - 0.022ms returns 0x00000000
T0FD8 000:932.906 JLINK_WriteMem(0x20000164, 0x29C Bytes, ...)
T0FD8 000:932.940   Data:  94 F8 24 00 01 28 01 D1 02 20 F8 BD 01 20 84 F8 ...
T0FD8 000:932.980   CPU_WriteMem(668 bytes @ 0x20000164)
T0FD8 000:936.192 - 3.322ms returns 0x29C
T0FD8 000:936.246 JLINK_WriteMem(0x20000400, 0x164 Bytes, ...)
T0FD8 000:936.262   Data:  FE F7 F8 FF 07 46 A0 6A 00 F0 10 00 00 28 73 D1 ...
T0FD8 000:936.303   CPU_WriteMem(356 bytes @ 0x20000400)
T0FD8 000:938.256 - 2.046ms returns 0x164
T0FD8 000:938.355 JLINK_HasError()
T0FD8 000:938.382 JLINK_WriteReg(R0, 0x08001800)
T0FD8 000:938.422 - 0.056ms returns 0
T0FD8 000:938.449 JLINK_WriteReg(R1, 0x00000400)
T0FD8 000:938.465 - 0.023ms returns 0
T0FD8 000:938.482 JLINK_WriteReg(R2, 0x20000164)
T0FD8 000:938.497 - 0.022ms returns 0
T0FD8 000:938.514 JLINK_WriteReg(R3, 0x00000000)
T0FD8 000:938.528 - 0.022ms returns 0
T0FD8 000:938.545 JLINK_WriteReg(R4, 0x00000000)
T0FD8 000:938.560 - 0.022ms returns 0
T0FD8 000:938.576 JLINK_WriteReg(R5, 0x00000000)
T0FD8 000:938.591 - 0.022ms returns 0
T0FD8 000:938.607 JLINK_WriteReg(R6, 0x00000000)
T0FD8 000:938.621 - 0.067ms returns 0
T0FD8 000:938.685 JLINK_WriteReg(R7, 0x00000000)
T0FD8 000:938.703 - 0.024ms returns 0
T0FD8 000:938.719 JLINK_WriteReg(R8, 0x00000000)
T0FD8 000:938.734 - 0.022ms returns 0
T0FD8 000:938.750 JLINK_WriteReg(R9, 0x20000160)
T0FD8 000:938.765 - 0.021ms returns 0
T0FD8 000:938.781 JLINK_WriteReg(R10, 0x00000000)
T0FD8 000:938.796 - 0.022ms returns 0
T0FD8 000:938.812 JLINK_WriteReg(R11, 0x00000000)
T0FD8 000:938.827 - 0.022ms returns 0
T0FD8 000:938.843 JLINK_WriteReg(R12, 0x00000000)
T0FD8 000:938.857 - 0.022ms returns 0
T0FD8 000:938.874 JLINK_WriteReg(R13 (SP), 0x20001000)
T0FD8 000:938.890 - 0.023ms returns 0
T0FD8 000:938.907 JLINK_WriteReg(R14, 0x20000001)
T0FD8 000:938.922 - 0.022ms returns 0
T0FD8 000:938.937 JLINK_WriteReg(R15 (PC), 0x200000F4)
T0FD8 000:938.952 - 0.022ms returns 0
T0FD8 000:938.968 JLINK_WriteReg(XPSR, 0x01000000)
T0FD8 000:938.983 - 0.022ms returns 0
T0FD8 000:938.999 JLINK_WriteReg(MSP, 0x20001000)
T0FD8 000:939.014 - 0.021ms returns 0
T0FD8 000:939.030 JLINK_WriteReg(PSP, 0x20001000)
T0FD8 000:939.044 - 0.021ms returns 0
T0FD8 000:939.060 JLINK_WriteReg(CFBP, 0x00000000)
T0FD8 000:939.075 - 0.027ms returns 0
T0FD8 000:939.098 JLINK_SetBPEx(Addr = 0x20000000, Type = 0xFFFFFFF2)
T0FD8 000:939.116 - 0.024ms returns 0x0000000B
T0FD8 000:939.132 JLINK_Go()
